#Digilent WaveForms Network Analyzer - Bode
#Device Name: Discovery2
#Serial Number: SN:210321AA23CA
#Date Time: 2019-04-01 12:59:37.574
#Start: 300 Hz
#Stop: 2250 Hz
#Steps: 500
#Wavegen: Wavegen1
#Amplification: 1 X
#Settle: 10 ms
#MinPeriods: 16 
#Channel: Channel 1
#Range: 5.5478 V
#Offset: -0.00029488 V
#Relative: no
#Channel: Channel 2
#Range: 5.4859 V
#Offset: -5.08746e-06 V
#Relative: yes

Frequency (Hz),Channel 1 Magnitude (dB),Channel 2 Magnitude (dB)
300,0.00787183,-0.717066
301.214,0.00482379,-0.717051
302.433,0.00407674,-0.715679
303.656,0.00812649,-0.715232
304.885,0.00639106,-0.713291
306.118,0.00770445,-0.713311
307.357,0.00678658,-0.713339
308.601,0.0102784,-0.711447
309.849,0.00445432,-0.708269
311.103,0.00864369,-0.710104
312.362,0.00937494,-0.707701
313.625,0.00805076,-0.706886
314.894,0.00451069,-0.705887
316.168,0.00451757,-0.702162
317.448,0.00536071,-0.701454
318.732,0.00675544,-0.704287
320.022,0.00643365,-0.700813
321.316,0.00468966,-0.701596
322.617,0.00394169,-0.694534
323.922,0.0068251,-0.697119
325.232,0.00474539,-0.696901
326.548,0.00604913,-0.694601
327.87,0.00568758,-0.694537
329.196,0.0021571,-0.692285
330.528,0.00846339,-0.692096
331.865,0.00572438,-0.692664
333.208,0.00875866,-0.690298
334.556,0.00650125,-0.688821
335.91,0.00704356,-0.686585
337.269,0.00519312,-0.686111
338.634,0.00506432,-0.683589
340.004,0.00830892,-0.684404
341.379,0.00650407,-0.682462
342.761,0.00776845,-0.68141
344.148,0.00509543,-0.678982
345.54,0.00462833,-0.675929
346.938,0.00328206,-0.676084
348.342,0.0094806,-0.676713
349.751,0.00832958,-0.675988
351.166,0.00849574,-0.673222
352.587,0.00565407,-0.670299
354.014,0.0042887,-0.671953
355.446,0.00450553,-0.670528
356.884,0.00177133,-0.668753
358.328,0.00586578,-0.668844
359.778,0.00608184,-0.667879
361.234,0.00218188,-0.661923
362.695,0.00626004,-0.663567
364.163,0.0030655,-0.661696
365.636,0.0065792,-0.664823
367.116,0.00457487,-0.660824
368.601,0.00688975,-0.658234
370.092,0.0079636,-0.657761
371.59,0.00527057,-0.654978
373.093,0.00990211,-0.660337
374.603,0.00588063,-0.652306
376.118,0.00905165,-0.654084
377.64,0.00815011,-0.654229
379.168,0.00868338,-0.65111
380.702,0.00971891,-0.64874
382.243,0.00409323,-0.645873
383.789,0.0062518,-0.645322
385.342,0.0038931,-0.642776
386.901,0.0010858,-0.641776
388.466,0.0054715,-0.641298
390.038,0.00509575,-0.640431
391.616,0.00723154,-0.637923
393.201,0.0052778,-0.637776
394.792,0.00502318,-0.634885
396.389,0.00504959,-0.633731
397.993,0.0065367,-0.630151
399.603,0.00668654,-0.632405
401.22,0.0079065,-0.632733
402.843,0.00564504,-0.626059
404.473,0.0059122,-0.626194
406.11,0.00576178,-0.624756
407.753,0.00758993,-0.625138
409.403,0.0062322,-0.623351
411.059,0.0091019,-0.620467
412.722,0.00605538,-0.619706
414.392,0.00550769,-0.615566
416.069,0.00558117,-0.61592
417.752,0.00385573,-0.614213
419.443,0.00894113,-0.614616
421.14,0.00687939,-0.60973
422.844,0.0040224,-0.610368
424.554,0.00467354,-0.605996
426.272,0.00596352,-0.608996
427.997,0.00521272,-0.606053
429.729,0.00296652,-0.601456
431.467,0.00851914,-0.606024
433.213,0.0068861,-0.600544
434.966,0.008359,-0.598827
436.726,0.00221376,-0.595802
438.493,0.00422743,-0.592993
440.267,0.00356618,-0.591937
442.048,0.00898447,-0.593518
443.837,0.0100848,-0.594365
445.633,0.00589605,-0.588186
447.436,0.0103003,-0.589588
449.246,0.00990105,-0.586016
451.064,0.00646968,-0.586477
452.889,0.003253,-0.580858
454.721,0.00541719,-0.583579
456.561,0.00766271,-0.580286
458.408,0.00416205,-0.575704
460.263,0.0073183,-0.577256
462.125,0.0108332,-0.576497
463.995,0.00677328,-0.574438
465.872,0.00607756,-0.56932
467.757,0.00218311,-0.569787
469.65,0.00544336,-0.565605
471.55,0.0099782,-0.566155
473.458,0.00628338,-0.564457
475.374,0.00712409,-0.563903
477.297,0.00535247,-0.559331
479.228,0.0084456,-0.560296
481.167,0.00649101,-0.559162
483.114,0.00591874,-0.557593
485.069,0.00407914,-0.553388
487.031,0.00654735,-0.552813
489.002,0.00113384,-0.550608
490.98,0.00718543,-0.551969
492.967,0.00521708,-0.547097
494.961,0.00558901,-0.54372
496.964,0.00650274,-0.542584
498.975,0.00290795,-0.543052
500.994,0.0056457,-0.547465
503.021,0.00708782,-0.53971
505.056,0.0103404,-0.542916
507.099,0.0115405,-0.536828
509.151,0.00692475,-0.534417
511.211,0.00919812,-0.534087
513.28,0.00490369,-0.531375
515.356,0.00389642,-0.528027
517.442,0.00656298,-0.527702
519.535,0.00935888,-0.527747
521.637,0.00302168,-0.523646
523.748,0.00658083,-0.524996
525.867,0.00912654,-0.521808
527.995,0.00821565,-0.518067
530.131,0.00839173,-0.518156
532.276,0.0076437,-0.516088
534.429,0.00130822,-0.512767
536.592,0.0100687,-0.511284
538.763,0.00570302,-0.507886
540.943,0.00600553,-0.507525
543.131,0.0064825,-0.505581
545.329,0.00744154,-0.506536
547.535,0.00687745,-0.503098
549.751,0.00570631,-0.503261
551.975,0.0075768,-0.497367
554.208,0.00528849,-0.497892
556.451,0.00059535,-0.493643
558.702,0.00783386,-0.493347
560.963,0.00990092,-0.494862
563.232,0.00682417,-0.48889
565.511,0.00795425,-0.488035
567.799,0.0061476,-0.48999
570.097,0.0113235,-0.486531
572.403,0.00217841,-0.482124
574.719,0.00346714,-0.483507
577.044,0.00375326,-0.480331
579.379,0.00943123,-0.478503
581.723,0.000988973,-0.475038
584.077,0.00612056,-0.473012
586.44,0.00304455,-0.470927
588.813,0.00788019,-0.46907
591.195,0.00234949,-0.464625
593.587,0.00432082,-0.464962
595.989,0.00444405,-0.46271
598.401,0.00978271,-0.463774
600.822,0.00567707,-0.462863
603.253,0.00619414,-0.458402
605.693,0.00649881,-0.455958
608.144,0.00570093,-0.455055
610.605,0.00326925,-0.454788
613.075,0.0012064,-0.449459
615.556,0.00749393,-0.45002
618.046,0.00744743,-0.447831
620.547,0.00693882,-0.442882
623.058,0.0109409,-0.440405
625.579,0.00336451,-0.437445
628.11,0.0065153,-0.438136
630.651,0.00594566,-0.438172
633.203,0.00710693,-0.429416
635.765,0.00577278,-0.429965
638.337,0.00419259,-0.426034
640.92,0.00790192,-0.428604
643.513,0.00424397,-0.424921
646.117,0.00846115,-0.426328
648.731,0.00646715,-0.420727
651.356,0.004973,-0.418749
653.991,0.00742486,-0.415631
656.637,0.00821437,-0.413433
659.294,0.00814733,-0.413876
661.961,0.00319338,-0.407904
664.64,0.00951807,-0.412202
667.329,0.0075007,-0.405262
670.029,0.00895293,-0.40732
672.74,0.00456938,-0.40045
675.462,0.00779662,-0.398076
678.195,0.00457207,-0.395819
680.939,0.00485587,-0.39159
683.694,0.0022129,-0.388025
686.46,0.00694572,-0.387908
689.238,0.00495077,-0.385505
692.026,0.00414027,-0.386171
694.826,0.00324475,-0.382459
697.638,0.00874432,-0.383986
700.46,0.00756114,-0.379087
703.294,0.0059371,-0.377874
706.14,0.00689224,-0.369904
708.997,0.00529778,-0.374254
711.866,0.0112117,-0.366762
714.746,0.00970725,-0.36817
717.638,0.00736562,-0.360529
720.541,0.00456038,-0.356426
723.457,0.00421224,-0.36057
726.384,0.0113786,-0.353729
729.323,0.00549278,-0.348431
732.274,0.00570226,-0.347186
735.237,0.00499965,-0.348497
738.211,0.0065387,-0.34363
741.198,0.00975179,-0.342551
744.197,0.0071565,-0.335996
747.208,0.00279444,-0.336649
750.231,0.00492661,-0.32922
753.267,0.00429097,-0.328232
756.315,0.0036651,-0.326222
759.375,0.00685632,-0.32155
762.447,0.0006799,-0.319292
765.532,0.00393537,-0.318858
768.629,0.0047951,-0.315726
771.739,0.00719207,-0.315334
774.862,0.00437515,-0.307045
777.997,0.00345017,-0.305505
781.145,0.00816917,-0.302388
784.305,0.00990028,-0.30203
787.479,0.00321152,-0.298975
790.665,0.00449605,-0.294219
793.864,0.00570352,-0.288866
797.076,0.00631074,-0.28977
800.301,0.00368809,-0.282948
803.539,0.00640558,-0.285027
806.79,0.00507387,-0.279112
810.054,0.0035892,-0.280258
813.332,-0.000296314,-0.27408
816.623,0.00477956,-0.272604
819.927,0.00432058,-0.265772
823.244,0.00808369,-0.267756
826.575,0.00487606,-0.260288
829.919,-0.000364976,-0.258577
833.277,0.010169,-0.258714
836.649,0.00479384,-0.254207
840.034,0.00602119,-0.247853
843.433,0.00433156,-0.253054
846.845,0.00213806,-0.237655
850.272,0.00536405,-0.236969
853.712,0.00401011,-0.235287
857.166,0.00770494,-0.234632
860.634,0.00668449,-0.232477
864.116,0.00120847,-0.226502
867.613,0.00336539,-0.222745
871.123,0.0114769,-0.224254
874.648,0.00832937,-0.218963
878.187,0.0123328,-0.215717
881.74,0.00984405,-0.214485
885.307,0.00368974,-0.207383
888.889,0.00831331,-0.202576
892.486,0.00921037,-0.203759
896.097,0.00347994,-0.19945
899.722,0.00528534,-0.195932
903.363,0.00931346,-0.191561
907.018,0.00496982,-0.189255
910.688,0.00647423,-0.185114
914.372,0.00481391,-0.184522
918.072,0.00257066,-0.182315
921.786,0.00336592,-0.179635
925.516,-0.00167892,-0.173296
929.261,0.00625847,-0.17477
933.021,0.0034966,-0.169532
936.796,0.00366146,-0.169219
940.586,0.0057666,-0.166572
944.392,0.00440344,-0.163894
948.213,-0.001354,-0.156649
952.049,0.000595451,-0.15972
955.901,0.00793859,-0.159748
959.769,0.00574986,-0.155422
963.652,0.00816331,-0.156588
967.551,0.00739632,-0.154148
971.466,0.00964241,-0.150226
975.396,0.00429521,-0.142756
979.343,0.00656361,-0.144262
983.305,0.0107081,-0.145996
987.284,0.00469158,-0.147058
991.278,0.00741682,-0.142378
995.289,0.00524626,-0.144088
999.316,0.0117823,-0.145443
1003.36,0.0127717,-0.147315
1007.42,0.00655823,-0.140255
1011.5,0.00555744,-0.144568
1015.59,0.00609216,-0.143277
1019.7,0.00874347,-0.141372
1023.82,0.00862846,-0.14613
1027.97,0.00838251,-0.144755
1032.12,0.0076396,-0.14811
1036.3,0.00475541,-0.144925
1040.49,0.0121887,-0.151869
1044.7,0.00662036,-0.153152
1048.93,0.00664235,-0.156399
1053.17,0.00408105,-0.157172
1057.44,0.00807799,-0.163158
1061.71,0.0119655,-0.166274
1066.01,0.00608067,-0.169006
1070.32,0.00602558,-0.174238
1074.65,0.00747875,-0.184365
1079,0.00457079,-0.184312
1083.37,0.00425326,-0.193035
1087.75,0.00403477,-0.194639
1092.15,0.00516298,-0.202555
1096.57,0.0117327,-0.212739
1101.01,0.00809971,-0.218714
1105.46,0.00595891,-0.23199
1109.93,0.00271008,-0.234179
1114.43,0.00470655,-0.242528
1118.93,0.00373196,-0.253533
1123.46,0.00786567,-0.263869
1128.01,0.00753167,-0.274944
1132.57,0.00848063,-0.290367
1137.15,0.0101758,-0.305763
1141.75,0.0037553,-0.313533
1146.37,0.00851624,-0.32783
1151.01,0.00617596,-0.335599
1155.67,0.00530846,-0.355497
1160.35,0.00511215,-0.36582
1165.04,0.000958643,-0.380269
1169.75,0.00729936,-0.39768
1174.49,0.00946197,-0.412992
1179.24,0.00545177,-0.43081
1184.01,0.00502378,-0.451143
1188.8,0.0120638,-0.470748
1193.61,0.00374474,-0.486528
1198.44,0.00901915,-0.507181
1203.29,0.00575163,-0.530941
1208.16,0.0129995,-0.552426
1213.05,0.00734688,-0.572659
1217.95,0.00526008,-0.592112
1222.88,0.00445533,-0.614675
1227.83,0.00251507,-0.637375
1232.8,0.000321563,-0.664474
1237.79,0.00469938,-0.688844
1242.79,0.00610689,-0.711245
1247.82,0.00804372,-0.740956
1252.87,0.00812124,-0.763973
1257.94,0.00331944,-0.790602
1263.03,0.00747339,-0.819142
1268.14,0.00442186,-0.843756
1273.27,0.00798954,-0.871195
1278.42,0.00824461,-0.900063
1283.59,0.0077123,-0.926065
1288.79,0.000292596,-0.952942
1294,0.00182282,-0.983767
1299.24,0.00403704,-1.0074
1304.5,0.000784439,-1.03742
1309.77,0.00681007,-1.07382
1315.07,0.00385201,-1.09842
1320.39,-0.00174268,-1.12571
1325.74,0.00581118,-1.15759
1331.1,0.00606368,-1.18741
1336.49,0.0163495,-1.22066
1341.89,0.00893612,-1.24297
1347.32,0.00940115,-1.27016
1352.77,0.00958848,-1.30305
1358.25,0.00912762,-1.32373
1363.74,0.00471815,-1.35109
1369.26,0.00567001,-1.37898
1374.8,0.00592146,-1.40318
1380.36,0.00454836,-1.43021
1385.95,0.0119198,-1.44524
1391.56,0.0105896,-1.46826
1397.19,-0.00128559,-1.48102
1402.84,0.00292786,-1.50018
1408.51,0.00738157,-1.51519
1414.21,0.00560032,-1.53376
1419.94,0.0078971,-1.54448
1425.68,0.0126713,-1.55325
1431.45,0.010387,-1.56138
1437.24,0.00763124,-1.56157
1443.06,0.00342633,-1.55768
1448.89,0.00893475,-1.55538
1454.76,0.00570138,-1.54636
1460.64,0.00875999,-1.52597
1466.55,0.00683749,-1.50057
1472.49,0.0039,-1.47872
1478.44,-0.00193014,-1.45286
1484.43,0.00101696,-1.40625
1490.43,-0.00058535,-1.36159
1496.46,0.000554067,-1.30984
1502.52,0.00560714,-1.25123
1508.6,0.0093251,-1.18479
1514.7,0.00642155,-1.10917
1520.83,0.00366383,-1.0173
1526.98,0.00272307,-0.943094
1533.16,0.0028002,-0.853689
1539.36,0.0104907,-0.777878
1545.59,0.00383881,-0.704986
1551.85,-0.000390139,-0.653878
1558.12,0.00274184,-0.641808
1564.43,0.0079344,-0.667929
1570.76,0.00423208,-0.723971
1577.11,0.0122222,-0.83698
1583.5,0.00180033,-0.97921
1589.9,0.00226204,-1.1828
1596.33,0.00461674,-1.4102
1602.79,0.00350192,-1.68499
1609.28,-0.00478909,-1.97035
1615.79,0.00732702,-2.31188
1622.33,0.00758562,-2.66223
1628.89,0.00802191,-3.0339
1635.48,0.00545785,-3.42958
1642.1,0.00364662,-3.83956
1648.74,0.00658269,-4.26272
1655.41,0.00961329,-4.69448
1662.11,0.00418171,-5.14142
1668.84,-0.00328046,-5.59247
1675.59,0.0117361,-6.08077
1682.37,-0.00175638,-6.53099
1689.18,0.00429792,-7.0227
1696.01,0.00715045,-7.53268
1702.87,0.00982689,-8.02986
1709.76,0.00272896,-8.52001
1716.68,0.0123271,-9.02191
1723.63,0.00478317,-9.55708
1730.6,0.00620965,-10.0587
1737.6,0.00429777,-10.5624
1744.63,0.00580458,-11.105
1751.69,0.000701427,-11.6207
1758.78,0.00513212,-12.1205
1765.89,-0.00291668,-12.6469
1773.04,0.00011289,-13.1928
1780.21,0.00649667,-13.7412
1787.42,0.00552131,-14.2666
1794.65,0.00758968,-14.7902
1801.91,0.0012372,-15.3102
1809.2,-0.000296522,-15.8632
1816.52,0.00459189,-16.4017
1823.87,0.00457362,-16.9233
1831.25,0.00531067,-17.4409
1838.66,0.00548606,-18.0026
1846.1,0.00580505,-18.5662
1853.57,0.0064955,-19.044
1861.07,0.00757604,-19.5875
1868.6,0.00361875,-20.1552
1876.16,0.00667116,-20.6562
1883.75,0.00071004,-21.1944
1891.37,0.0105372,-21.7631
1899.02,0.0117801,-22.2218
1906.71,0.0104066,-22.7647
1914.42,-0.00114295,-23.3072
1922.17,0.00593501,-23.885
1929.94,0.00608658,-24.3471
1937.75,0.0106407,-24.8311
1945.59,0.0146728,-25.3581
1953.46,0.00398709,-25.9146
1961.37,0.0088253,-26.4431
1969.3,0.00524728,-26.9212
1977.27,0.0117804,-27.4771
1985.27,0.00253508,-27.9868
1993.3,0.00704499,-28.4351
2001.37,0.00467222,-29.059
2009.47,2.7998e-05,-29.4534
2017.6,0.00900862,-30.12
2025.76,0.00174594,-30.5115
2033.96,0.00682677,-31.0713
2042.19,0.00640113,-31.4938
2050.45,0.00248327,-32.006
2058.75,0.00881928,-32.5189
2067.08,-0.00214206,-32.9936
2075.44,0.0132751,-33.4294
2083.84,0.00392042,-34.1135
2092.27,-0.000942466,-34.4594
2100.73,0.0113221,-35.0244
2109.23,0.00165877,-35.3448
2117.77,0.00651772,-35.733
2126.34,-0.00519265,-36.3283
2134.94,-0.00285175,-37.0811
2143.58,0.00801658,-37.3029
2152.25,0.0124957,-37.7256
2160.96,0.0101502,-38.3235
2169.7,0.00164048,-38.8594
2178.48,0.00536531,-39.4715
2187.29,0.00224433,-39.5866
2196.14,0.00238063,-40.3784
2205.03,0.000975666,-40.6239
2213.95,0.00714357,-41.1603
2222.91,0.00479467,-41.737
2231.9,0.0116269,-42.2767
2240.93,0.00235276,-42.704
2250,0.0106955,-42.8603
