Freq.	V(vo)
3.00000000000000e+002	(-5.68948797844675e-001dB,-8.65870876566119e+001°)
3.00691571423370e+002	(-5.68958666432656e-001dB,-8.67887296030870e+001°)
3.01384737083519e+002	(-5.68968692044092e-001dB,-8.69908492974685e+001°)
3.02079500655541e+002	(-5.68978874353995e-001dB,-8.71934479288381e+001°)
3.02775865823005e+002	(-5.68989213015038e-001dB,-8.73965266897427e+001°)
3.03473836277970e+002	(-5.68999707657162e-001dB,-8.76000867762100e+001°)
3.04173415721004e+002	(-5.69010357887652e-001dB,-8.78041293877640e+001°)
3.04874607861209e+002	(-5.69021163290763e-001dB,-8.80086557274406e+001°)
3.05577416416235e+002	(-5.69032123427434e-001dB,-8.82136670018034e+001°)
3.06281845112304e+002	(-5.69043237835348e-001dB,-8.84191644209601e+001°)
3.06987897684226e+002	(-5.69054506028473e-001dB,-8.86251491985779e+001°)
3.07695577875422e+002	(-5.69065927497004e-001dB,-8.88316225518998e+001°)
3.08404889437942e+002	(-5.69077501707192e-001dB,-8.90385857017613e+001°)
3.09115836132485e+002	(-5.69089228101027e-001dB,-8.92460398726063e+001°)
3.09828421728419e+002	(-5.69101106096205e-001dB,-8.94539862925039e+001°)
3.10542650003803e+002	(-5.69113135085896e-001dB,-8.96624261931649e+001°)
3.11258524745403e+002	(-5.69125314438424e-001dB,-8.98713608099588e+001°)
3.11976049748717e+002	(-5.69137643497335e-001dB,-9.00807913819305e+001°)
3.12695228817991e+002	(-5.69150121581050e-001dB,-9.02907191518173e+001°)
3.13416065766240e+002	(-5.69162747982711e-001dB,-9.05011453660663e+001°)
3.14138564415269e+002	(-5.69175521970116e-001dB,-9.07120712748513e+001°)
3.14862728595696e+002	(-5.69188442785491e-001dB,-9.09234981320906e+001°)
3.15588562146966e+002	(-5.69201509645288e-001dB,-9.11354271954644e+001°)
3.16316068917377e+002	(-5.69214721740116e-001dB,-9.13478597264322e+001°)
3.17045252764097e+002	(-5.69228078234585e-001dB,-9.15607969902509e+001°)
3.17776117553186e+002	(-5.69241578267066e-001dB,-9.17742402559929e+001°)
3.18508667159617e+002	(-5.69255220949689e-001dB,-9.19881907965636e+001°)
3.19242905467294e+002	(-5.69269005368071e-001dB,-9.22026498887202e+001°)
3.19978836369077e+002	(-5.69282930581351e-001dB,-9.24176188130895e+001°)
3.20716463766797e+002	(-5.69296995621931e-001dB,-9.26330988541869e+001°)
3.21455791571281e+002	(-5.69311199495359e-001dB,-9.28490913004344e+001°)
3.22196823702373e+002	(-5.69325541180293e-001dB,-9.30655974441798e+001°)
3.22939564088950e+002	(-5.69340019628444e-001dB,-9.32826185817157e+001°)
3.23684016668948e+002	(-5.69354633764230e-001dB,-9.35001560132979e+001°)
3.24430185389381e+002	(-5.69369382484961e-001dB,-9.37182110431653e+001°)
3.25178074206360e+002	(-5.69384264660586e-001dB,-9.39367849795582e+001°)
3.25927687085119e+002	(-5.69399279133671e-001dB,-9.41558791347390e+001°)
3.26679028000029e+002	(-5.69414424719293e-001dB,-9.43754948250108e+001°)
3.27432100934626e+002	(-5.69429700205016e-001dB,-9.45956333707375e+001°)
3.28186909881627e+002	(-5.69445104350740e-001dB,-9.48162960963635e+001°)
3.28943458842955e+002	(-5.69460635888777e-001dB,-9.50374843304340e+001°)
3.29701751829755e+002	(-5.69476293523729e-001dB,-9.52591994056150e+001°)
3.30461792862424e+002	(-5.69492075932351e-001dB,-9.54814426587134e+001°)
3.31223585970621e+002	(-5.69507981763777e-001dB,-9.57042154306975e+001°)
3.31987135193299e+002	(-5.69524009639195e-001dB,-9.59275190667182e+001°)
3.32752444578719e+002	(-5.69540158152061e-001dB,-9.61513549161286e+001°)
3.33519518184476e+002	(-5.69556425867999e-001dB,-9.63757243325060e+001°)
3.34288360077518e+002	(-5.69572811324777e-001dB,-9.66006286736721e+001°)
3.35058974334167e+002	(-5.69589313032362e-001dB,-9.68260693017148e+001°)
3.35831365040144e+002	(-5.69605929472948e-001dB,-9.70520475830091e+001°)
3.36605536290588e+002	(-5.69622659100951e-001dB,-9.72785648882387e+001°)
3.37381492190077e+002	(-5.69639500343046e-001dB,-9.75056225924180e+001°)
3.38159236852652e+002	(-5.69656451598205e-001dB,-9.77332220749132e+001°)
3.38938774401838e+002	(-5.69673511237852e-001dB,-9.79613647194644e+001°)
3.39720108970666e+002	(-5.69690677605830e-001dB,-9.81900519142083e+001°)
3.40503244701693e+002	(-5.69707949018461e-001dB,-9.84192850517000e+001°)
3.41288185747028e+002	(-5.69725323764724e-001dB,-9.86490655289354e+001°)
3.42074936268349e+002	(-5.69742800106265e-001dB,-9.88793947473732e+001°)
3.42863500436930e+002	(-5.69760376277621e-001dB,-9.91102741129589e+001°)
3.43653882433659e+002	(-5.69778050486224e-001dB,-9.93417050361465e+001°)
3.44446086449064e+002	(-5.69795820912597e-001dB,-9.95736889319220e+001°)
3.45240116683329e+002	(-5.69813685710462e-001dB,-9.98062272198264e+001°)
3.46035977346326e+002	(-5.69831643007015e-001dB,-1.00039321323979e+002°)
3.46833672657628e+002	(-5.69849690902873e-001dB,-1.00272972673102e+002°)
3.47633206846536e+002	(-5.69867827472544e-001dB,-1.00507182700542e+002°)
3.48434584152101e+002	(-5.69886050764291e-001dB,-1.00741952844295e+002°)
3.49237808823146e+002	(-5.69904358800627e-001dB,-1.00977284547030e+002°)
3.50042885118287e+002	(-5.69922749578468e-001dB,-1.01213179256114e+002°)
3.50849817305960e+002	(-5.69941221069170e-001dB,-1.01449638423637e+002°)
3.51658609664438e+002	(-5.69959771219136e-001dB,-1.01686663506432e+002°)
3.52469266481857e+002	(-5.69978397949736e-001dB,-1.01924255966105e+002°)
3.53281792056241e+002	(-5.69997099157741e-001dB,-1.02162417269056e+002°)
3.54096190695517e+002	(-5.70015872715705e-001dB,-1.02401148886506e+002°)
3.54912466717548e+002	(-5.70034716472092e-001dB,-1.02640452294521e+002°)
3.55730624450146e+002	(-5.70053628251675e-001dB,-1.02880328974039e+002°)
3.56550668231104e+002	(-5.70072605855960e-001dB,-1.03120780410891e+002°)
3.57372602408211e+002	(-5.70091647063418e-001dB,-1.03361808095831e+002°)
3.58196431339280e+002	(-5.70110749629848e-001dB,-1.03603413524562e+002°)
3.59022159392171e+002	(-5.70129911288916e-001dB,-1.03845598197757e+002°)
3.59849790944812e+002	(-5.70149129752434e-001dB,-1.04088363621089e+002°)
3.60679330385222e+002	(-5.70168402710786e-001dB,-1.04331711305257e+002°)
3.61510782111538e+002	(-5.70187727833396e-001dB,-1.04575642766011e+002°)
3.62344150532032e+002	(-5.70207102769200e-001dB,-1.04820159524177e+002°)
3.63179440065143e+002	(-5.70226525147119e-001dB,-1.05065263105689e+002°)
3.64016655139491e+002	(-5.70245992576470e-001dB,-1.05310955041610e+002°)
3.64855800193909e+002	(-5.70265502647608e-001dB,-1.05557236868162e+002°)
3.65696879677458e+002	(-5.70285052932335e-001dB,-1.05804110126753e+002°)
3.66539898049460e+002	(-5.70304640984582e-001dB,-1.06051576364003e+002°)
3.67384859779513e+002	(-5.70324264340808e-001dB,-1.06299637131771e+002°)
3.68231769347520e+002	(-5.70343920520712e-001dB,-1.06548293987186e+002°)
3.69080631243713e+002	(-5.70363607027864e-001dB,-1.06797548492671e+002°)
3.69931449968671e+002	(-5.70383321350241e-001dB,-1.07047402215973e+002°)
3.70784230033351e+002	(-5.70403060960835e-001dB,-1.07297856730190e+002°)
3.71638975959109e+002	(-5.70422823318540e-001dB,-1.07548913613798e+002°)
3.72495692277721e+002	(-5.70442605868639e-001dB,-1.07800574450684e+002°)
3.73354383531414e+002	(-5.70462406043536e-001dB,-1.08052840830169e+002°)
3.74215054272881e+002	(-5.70482221263628e-001dB,-1.08305714347040e+002°)
3.75077709065314e+002	(-5.70502048937972e-001dB,-1.08559196601577e+002°)
3.75942352482423e+002	(-5.70521886464934e-001dB,-1.08813289199582e+002°)
3.76808989108460e+002	(-5.70541731233307e-001dB,-1.09067993752412e+002°)
3.77677623538248e+002	(-5.70561580622786e-001dB,-1.09323311877003e+002°)
3.78548260377199e+002	(-5.70581432005096e-001dB,-1.09579245195899e+002°)
3.79420904241343e+002	(-5.70601282744688e-001dB,-1.09835795337289e+002°)
3.80295559757351e+002	(-5.70621130199740e-001dB,-1.10092963935027e+002°)
3.81172231562560e+002	(-5.70640971723014e-001dB,-1.10350752628670e+002°)
3.82050924304996e+002	(-5.70660804662816e-001dB,-1.10609163063502e+002°)
3.82931642643401e+002	(-5.70680626363920e-001dB,-1.10868196890568e+002°)
3.83814391247255e+002	(-5.70700434168751e-001dB,-1.11127855766701e+002°)
3.84699174796804e+002	(-5.70720225418159e-001dB,-1.11388141354556e+002°)
3.85585997983082e+002	(-5.70739997452593e-001dB,-1.11649055322638e+002°)
3.86474865507938e+002	(-5.70759747613185e-001dB,-1.11910599345332e+002°)
3.87365782084058e+002	(-5.70779473242794e-001dB,-1.12172775102937e+002°)
3.88258752434993e+002	(-5.70799171687150e-001dB,-1.12435584281693e+002°)
3.89153781295184e+002	(-5.70818840296050e-001dB,-1.12699028573816e+002°)
3.90050873409984e+002	(-5.70838476424453e-001dB,-1.12963109677525e+002°)
3.90950033535687e+002	(-5.70858077433791e-001dB,-1.13227829297078e+002°)
3.91851266439550e+002	(-5.70877640693044e-001dB,-1.13493189142798e+002°)
3.92754576899819e+002	(-5.70897163580219e-001dB,-1.13759190931110e+002°)
3.93659969705758e+002	(-5.70916643483428e-001dB,-1.14025836384567e+002°)
3.94567449657669e+002	(-5.70936077802427e-001dB,-1.14293127231888e+002°)
3.95477021566919e+002	(-5.70955463949691e-001dB,-1.14561065207985e+002°)
3.96388690255970e+002	(-5.70974799352068e-001dB,-1.14829652053998e+002°)
3.97302460558397e+002	(-5.70994081451962e-001dB,-1.15098889517323e+002°)
3.98218337318919e+002	(-5.71013307708965e-001dB,-1.15368779351650e+002°)
3.99136325393425e+002	(-5.71032475601088e-001dB,-1.15639323316991e+002°)
4.00056429648994e+002	(-5.71051582626532e-001dB,-1.15910523179714e+002°)
4.00978654963930e+002	(-5.71070626305014e-001dB,-1.16182380712576e+002°)
4.01903006227778e+002	(-5.71089604179332e-001dB,-1.16454897694754e+002°)
4.02829488341356e+002	(-5.71108513817074e-001dB,-1.16728075911881e+002°)
4.03758106216781e+002	(-5.71127352812143e-001dB,-1.17001917156073e+002°)
4.04688864777493e+002	(-5.71146118786411e-001dB,-1.17276423225968e+002°)
4.05621768958280e+002	(-5.71164809391401e-001dB,-1.17551595926757e+002°)
4.06556823705308e+002	(-5.71183422310040e-001dB,-1.17827437070214e+002°)
4.07494033976143e+002	(-5.71201955258415e-001dB,-1.18103948474735e+002°)
4.08433404739782e+002	(-5.71220405987373e-001dB,-1.18381131965366e+002°)
4.09374940976674e+002	(-5.71238772284614e-001dB,-1.18658989373840e+002°)
4.10318647678752e+002	(-5.71257051976250e-001dB,-1.18937522538606e+002°)
4.11264529849453e+002	(-5.71275242928880e-001dB,-1.19216733304869e+002°)
4.12212592503751e+002	(-5.71293343051393e-001dB,-1.19496623524618e+002°)
4.13162840668181e+002	(-5.71311350296849e-001dB,-1.19777195056660e+002°)
4.14115279380862e+002	(-5.71329262664695e-001dB,-1.20058449766659e+002°)
4.15069913691531e+002	(-5.71347078202425e-001dB,-1.20340389527163e+002°)
4.16026748661563e+002	(-5.71364795007864e-001dB,-1.20623016217641e+002°)
4.16985789364002e+002	(-5.71382411231129e-001dB,-1.20906331724518e+002°)
4.17947040883587e+002	(-5.71399925076773e-001dB,-1.21190337941206e+002°)
4.18910508316778e+002	(-5.71417334805872e-001dB,-1.21475036768140e+002°)
4.19876196771782e+002	(-5.71434638738185e-001dB,-1.21760430112811e+002°)
4.20844111368584e+002	(-5.71451835254487e-001dB,-1.22046519889800e+002°)
4.21814257238970e+002	(-5.71468922798586e-001dB,-1.22333308020814e+002°)
4.22786639526559e+002	(-5.71485899879722e-001dB,-1.22620796434717e+002°)
4.23761263386823e+002	(-5.71502765074846e-001dB,-1.22908987067566e+002°)
4.24738133987121e+002	(-5.71519517030935e-001dB,-1.23197881862643e+002°)
4.25717256506724e+002	(-5.71536154467376e-001dB,-1.23487482770492e+002°)
4.26698636136842e+002	(-5.71552676178307e-001dB,-1.23777791748954e+002°)
4.27682278080653e+002	(-5.71569081035141e-001dB,-1.24068810763195e+002°)
4.28668187553327e+002	(-5.71585367988888e-001dB,-1.24360541785745e+002°)
4.29656369782059e+002	(-5.71601536072829e-001dB,-1.24652986796534e+002°)
4.30646830006093e+002	(-5.71617584404790e-001dB,-1.24946147782919e+002°)
4.31639573476750e+002	(-5.71633512189997e-001dB,-1.25240026739726e+002°)
4.32634605457457e+002	(-5.71649318723447e-001dB,-1.25534625669279e+002°)
4.33631931223774e+002	(-5.71665003392629e-001dB,-1.25829946581434e+002°)
4.34631556063424e+002	(-5.71680565680129e-001dB,-1.26125991493617e+002°)
4.35633485276319e+002	(-5.71696005166301e-001dB,-1.26422762430853e+002°)
4.36637724174586e+002	(-5.71711321532088e-001dB,-1.26720261425805e+002°)
4.37644278082600e+002	(-5.71726514561637e-001dB,-1.27018490518805e+002°)
4.38653152337011e+002	(-5.71741584145085e-001dB,-1.27317451757885e+002°)
4.39664352286769e+002	(-5.71756530281555e-001dB,-1.27617147198818e+002°)
4.40677883293156e+002	(-5.71771353081680e-001dB,-1.27917578905145e+002°)
4.41693750729811e+002	(-5.71786052770757e-001dB,-1.28218748948213e+002°)
4.42711959982764e+002	(-5.71800629691492e-001dB,-1.28520659407207e+002°)
4.43732516450458e+002	(-5.71815084306895e-001dB,-1.28823312369183e+002°)
4.44755425543782e+002	(-5.71829417203304e-001dB,-1.29126709929102e+002°)
4.45780692686098e+002	(-5.71843629093396e-001dB,-1.29430854189864e+002°)
4.46808323313270e+002	(-5.71857720819127e-001dB,-1.29735747262339e+002°)
4.47838322873694e+002	(-5.71871693354692e-001dB,-1.30041391265405e+002°)
4.48870696828325e+002	(-5.71885547809784e-001dB,-1.30347788325975e+002°)
4.49905450650708e+002	(-5.71899285432472e-001dB,-1.30654940579035e+002°)
4.50942589827002e+002	(-5.71912907612422e-001dB,-1.30962850167674e+002°)
4.51982119856018e+002	(-5.71926415884050e-001dB,-1.31271519243117e+002°)
4.53024046249240e+002	(-5.71939811929506e-001dB,-1.31580949964758e+002°)
4.54068374530858e+002	(-5.71953097582122e-001dB,-1.31891144500195e+002°)
4.55115110237796e+002	(-5.71966274829360e-001dB,-1.32202105025258e+002°)
4.56164258919744e+002	(-5.71979345816109e-001dB,-1.32513833724043e+002°)
4.57215826139183e+002	(-5.71992312848027e-001dB,-1.32826332788946e+002°)
4.58269817471417e+002	(-5.72005178394745e-001dB,-1.33139604420691e+002°)
4.59326238504604e+002	(-5.72017945092999e-001dB,-1.33453650828366e+002°)
4.60385094839783e+002	(-5.72030615750129e-001dB,-1.33768474229452e+002°)
4.61446392090905e+002	(-5.72043193347291e-001dB,-1.34084076849854e+002°)
4.62510135884863e+002	(-5.72055681042799e-001dB,-1.34400460923934e+002°)
4.63576331861519e+002	(-5.72068082175471e-001dB,-1.34717628694541e+002°)
4.64644985673739e+002	(-5.72080400267946e-001dB,-1.35035582413044e+002°)
4.65716102987420e+002	(-5.72092639030123e-001dB,-1.35354324339357e+002°)
4.66789689481517e+002	(-5.72104802362473e-001dB,-1.35673856741977e+002°)
4.67865750848081e+002	(-5.72116894359465e-001dB,-1.35994181898008e+002°)
4.68944292792281e+002	(-5.72128919312901e-001dB,-1.36315302093196e+002°)
4.70025321032440e+002	(-5.72140881715438e-001dB,-1.36637219621955e+002°)
4.71108841300061e+002	(-5.72152786263877e-001dB,-1.36959936787398e+002°)
4.72194859339861e+002	(-5.72164637862575e-001dB,-1.37283455901368e+002°)
4.73283380909799e+002	(-5.72176441627014e-001dB,-1.37607779284464e+002°)
4.74374411781110e+002	(-5.72188202886984e-001dB,-1.37932909266073e+002°)
4.75467957738329e+002	(-5.72199927190209e-001dB,-1.38258848184397e+002°)
4.76564024579328e+002	(-5.72211620305627e-001dB,-1.38585598386482e+002°)
4.77662618115346e+002	(-5.72223288226884e-001dB,-1.38913162228245e+002°)
4.78763744171014e+002	(-5.72234937175697e-001dB,-1.39241542074504e+002°)
4.79867408584395e+002	(-5.72246573605285e-001dB,-1.39570740299005e+002°)
4.80973617207007e+002	(-5.72258204203679e-001dB,-1.39900759284448e+002°)
4.82082375903858e+002	(-5.72269835897232e-001dB,-1.40231601422516e+002°)
4.83193690553476e+002	(-5.72281475853844e-001dB,-1.40563269113902e+002°)
4.84307567047940e+002	(-5.72293131486475e-001dB,-1.40895764768332e+002°)
4.85424011292914e+002	(-5.72304810456361e-001dB,-1.41229090804597e+002°)
4.86543029207673e+002	(-5.72316520676340e-001dB,-1.41563249650575e+002°)
4.87664626725139e+002	(-5.72328270314278e-001dB,-1.41898243743256e+002°)
4.88788809791911e+002	(-5.72340067796175e-001dB,-1.42234075528771e+002°)
4.89915584368294e+002	(-5.72351921809502e-001dB,-1.42570747462417e+002°)
4.91044956428337e+002	(-5.72363841306486e-001dB,-1.42908262008677e+002°)
4.92176931959856e+002	(-5.72375835507222e-001dB,-1.43246621641249e+002°)
4.93311516964473e+002	(-5.72387913902800e-001dB,-1.43585828843070e+002°)
4.94448717457646e+002	(-5.72400086258583e-001dB,-1.43925886106337e+002°)
4.95588539468698e+002	(-5.72412362617183e-001dB,-1.44266795932535e+002°)
4.96730989040852e+002	(-5.72424753301585e-001dB,-1.44608560832454e+002°)
4.97876072231262e+002	(-5.72437268918111e-001dB,-1.44951183326220e+002°)
4.99023795111045e+002	(-5.72449920359363e-001dB,-1.45294665943311e+002°)
5.00174163765313e+002	(-5.72462718807271e-001dB,-1.45639011222583e+002°)
5.01327184293206e+002	(-5.72475675735879e-001dB,-1.45984221712289e+002°)
5.02482862807925e+002	(-5.72488802914160e-001dB,-1.46330299970105e+002°)
5.03641205436762e+002	(-5.72502112408812e-001dB,-1.46677248563148e+002°)
5.04802218321134e+002	(-5.72515616586944e-001dB,-1.47025070067996e+002°)
5.05965907616616e+002	(-5.72529328118754e-001dB,-1.47373767070713e+002°)
5.07132279492973e+002	(-5.72543259980091e-001dB,-1.47723342166867e+002°)
5.08301340134192e+002	(-5.72557425454951e-001dB,-1.48073797961550e+002°)
5.09473095738517e+002	(-5.72571838137998e-001dB,-1.48425137069397e+002°)
5.10647552518479e+002	(-5.72586511936785e-001dB,-1.48777362114609e+002°)
5.11824716700930e+002	(-5.72601461074177e-001dB,-1.49130475730966e+002°)
5.13004594527080e+002	(-5.72616700090644e-001dB,-1.49484480561853e+002°)
5.14187192252521e+002	(-5.72632243846094e-001dB,-1.49839379260273e+002°)
5.15372516147270e+002	(-5.72648107522109e-001dB,-1.50195174488869e+002°)
5.16560572495795e+002	(-5.72664306623981e-001dB,-1.50551868919939e+002°)
5.17751367597054e+002	(-5.72680856982420e-001dB,-1.50909465235455e+002°)
5.18944907764523e+002	(-5.72697774755282e-001dB,-1.51267966127080e+002°)
5.20141199326234e+002	(-5.72715076429311e-001dB,-1.51627374296188e+002°)
5.21340248624806e+002	(-5.72732778821721e-001dB,-1.51987692453874e+002°)
5.22542062017477e+002	(-5.72750899081495e-001dB,-1.52348923320977e+002°)
5.23746645876144e+002	(-5.72769454690807e-001dB,-1.52711069628095e+002°)
5.24954006587390e+002	(-5.72788463466264e-001dB,-1.53074134115597e+002°)
5.26164150552521e+002	(-5.72807943559860e-001dB,-1.53438119533646e+002°)
5.27377084187600e+002	(-5.72827913459999e-001dB,-1.53803028642205e+002°)
5.28592813923481e+002	(-5.72848391992347e-001dB,-1.54168864211062e+002°)
5.29811346205842e+002	(-5.72869398320510e-001dB,-1.54535629019838e+002°)
5.31032687495219e+002	(-5.72890951946605e-001dB,-1.54903325858005e+002°)
5.32256844267042e+002	(-5.72913072711553e-001dB,-1.55271957524902e+002°)
5.33483823011669e+002	(-5.72935780795571e-001dB,-1.55641526829746e+002°)
5.34713630234419e+002	(-5.72959096717994e-001dB,-1.56012036591647e+002°)
5.35946272455608e+002	(-5.72983041337527e-001dB,-1.56383489639626e+002°)
5.37181756210581e+002	(-5.73007635851805e-001dB,-1.56755888812624e+002°)
5.38420088049750e+002	(-5.73032901797072e-001dB,-1.57129236959518e+002°)
5.39661274538629e+002	(-5.73058861047914e-001dB,-1.57503536939138e+002°)
5.40905322257863e+002	(-5.73085535815994e-001dB,-1.57878791620273e+002°)
5.42152237803270e+002	(-5.73112948649656e-001dB,-1.58255003881694e+002°)
5.43402027785873e+002	(-5.73141122432650e-001dB,-1.58632176612159e+002°)
5.44654698831933e+002	(-5.73170080382882e-001dB,-1.59010312710434e+002°)
5.45910257582987e+002	(-5.73199846050868e-001dB,-1.59389415085299e+002°)
5.47168710695883e+002	(-5.73230443318290e-001dB,-1.59769486655570e+002°)
5.48430064842815e+002	(-5.73261896395864e-001dB,-1.60150530350105e+002°)
5.49694326711355e+002	(-5.73294229821490e-001dB,-1.60532549107822e+002°)
5.50961503004496e+002	(-5.73327468457820e-001dB,-1.60915545877711e+002°)
5.52231600440679e+002	(-5.73361637489924e-001dB,-1.61299523618851e+002°)
5.53504625753834e+002	(-5.73396762422287e-001dB,-1.61684485300418e+002°)
5.54780585693415e+002	(-5.73432869076143e-001dB,-1.62070433901705e+002°)
5.56059487024435e+002	(-5.73469983586118e-001dB,-1.62457372412132e+002°)
5.57341336527501e+002	(-5.73508132396832e-001dB,-1.62845303831265e+002°)
5.58626140998852e+002	(-5.73547342259323e-001dB,-1.63234231168827e+002°)
5.59913907250393e+002	(-5.73587640226933e-001dB,-1.63624157444714e+002°)
5.61204642109732e+002	(-5.73629053651368e-001dB,-1.64015085689012e+002°)
